
T1DB4 000:444 SEGGER J-Link V4.80g Log File (0000ms, 0262ms total)
T1DB4 000:444 DLL Compiled: Feb 13 2014 20:50:02 (0000ms, 0262ms total)
T1DB4 000:444 Logging started @ 2018-07-07 17:35 (0000ms, 0262ms total)
T1DB4 000:444 JLINK_SetWarnOutHandler(...) (0000ms, 0262ms total)
T1DB4 000:444 JLINK_OpenEx(...)
Firmware: J-Link ARM V8 compiled Nov 28 2014 13:44:46
Hardware: V8.00
S/N: 799713843
Feature(s): RDI,FlashDL,FlashBP,JFlash,GDBFULL  returns O.K. (0261ms, 0523ms total)
T1DB4 000:705 JLINK_SetErrorOutHandler(...) (0000ms, 0523ms total)
T1DB4 000:705 JLINK_ExecCommand("ProjectFile = "D:\开发\探索者\A\4，程序源码\2，标准例程-库函数版本\2，标准例程-库函数版本\实验13 TFT LCD显示实验\USER\JLinkSettings.ini"", ...)  returns 0x00 (0001ms, 0524ms total)
T1DB4 000:706 JLINK_ExecCommand("Device = STM32F407ZG", ...)Device "STM32F407ZG" selected (1024 KB flash, 128 KB RAM).  returns 0x00 (0002ms, 0526ms total)
T1DB4 000:708 JLINK_ExecCommand("DisableConnectionTimeout", ...)  returns 0x01 (0000ms, 0526ms total)
T1DB4 000:708 JLINK_GetHardwareVersion()  returns 0x13880 (0000ms, 0526ms total)
T1DB4 000:708 JLINK_GetDLLVersion()  returns 48007 (0000ms, 0526ms total)
T1DB4 000:708 JLINK_GetFirmwareString(...) (0000ms, 0526ms total)
T1DB4 000:709 JLINK_GetDLLVersion()  returns 48007 (0000ms, 0526ms total)
T1DB4 000:709 JLINK_GetCompileDateTime() (0000ms, 0526ms total)
T1DB4 000:709 JLINK_GetFirmwareString(...) (0000ms, 0526ms total)
T1DB4 000:709 JLINK_GetHardwareVersion()  returns 0x13880 (0000ms, 0526ms total)
T1DB4 000:709 JLINK_TIF_Select(JLINKARM_TIF_SWD)  returns 0x00 (0001ms, 0527ms total)
T1DB4 000:710 JLINK_SetSpeed(1000) (0000ms, 0527ms total)
T1DB4 000:710 JLINK_GetId() >0x108 TIF>Found SWD-DP with ID 0x2BA01477 >0x0D TIF> >0x28 TIF> >0x0D TIF> >0x28 TIF> >0x0D TIF> >0x21 TIF> >0x0D TIF> >0x28 TIF> >0x0D TIF> >0x28 TIF> >0x0D TIF> >0x28 TIF> >0x0D TIF> >0x21 TIF> >0x0D TIF> >0x21 TIF> >0x0D TIF> >0x28 TIF> >0x0D TIF> >0x21 TIF> >0x0D TIF> >0x21 TIF> >0x0D TIF> >0x28 TIF> >0x0D TIF> >0x21 TIF> >0x0D TIF> >0x21 TIF> >0x108 TIF>Found SWD-DP with ID 0x2BA01477 >0x0D TIF> >0x21 TIF> >0x0D TIF> >0x28 TIF> >0x0D TIF> >0x28 TIF> >0x0D TIF> >0x21 TIF>
 >0x0D TIF> >0x28 TIF> >0x0D TIF> >0x21 TIF> >0x0D TIF> >0x21 TIF> >0x0D TIF> >0x21 TIF> >0x0D TIF> >0x21 TIF> >0x0D TIF> >0x28 TIF> >0x0D TIF> >0x28 TIF> >0x0D TIF> >0x21 TIF> >0x0D TIF> >0x28 TIF> >0x0D TIF> >0x28 TIF> >0x0D TIF> >0x28 TIF> >0x0D TIF> >0x21 TIF> >0x0D TIF> >0x21 TIF> >0x0D TIF> >0x28 TIF> >0x0D TIF> >0x21 TIF> >0x0D TIF> >0x21 TIF>Found Cortex-M4 r0p1, Little endian. -- CPU_WriteMem(4 bytes @ 0xE0002000) -- CPU_ReadMem(4 bytes @ 0xE000EDF0) -- CPU_ReadMem(4 bytes @ 0xE0002000)
FPUnit: 6 code (BP) slots and 2 literal slots -- CPU_ReadMem(4 bytes @ 0xE000EDFC) -- CPU_ReadMem(4 bytes @ 0xE0001000) -- CPU_WriteMem(4 bytes @ 0xE0001000) -- CPU_ReadMem(4 bytes @ 0xE00FF010)TPIU fitted. -- CPU_ReadMem(4 bytes @ 0xE00FF014)ETM fitted. -- CPU_ReadMem(4 bytes @ 0xE00FF018) >0x0D TIF> >0x21 TIF>  returns 0x2BA01477 (0032ms, 0559ms total)
T1DB4 000:742 JLINK_GetDeviceFamily()  returns 14 (0000ms, 0559ms total)
T1DB4 000:743 JLINK_ReadMem (0xE00FFFF0, 0x0010 Bytes, ...) -- CPU is running -- CPU_ReadMem(16 bytes @ 0xE00FFFF0) -- Data:  0D 00 00 00 10 00 00 00 05 00 00 00 B1 00 00 00  returns 0x00 (0001ms, 0560ms total)
T1DB4 000:744 JLINK_ReadMem (0xE00FFFD0, 0x0020 Bytes, ...) -- CPU is running -- CPU_ReadMem(32 bytes @ 0xE00FFFD0) -- Data:  00 00 00 00 00 00 00 00 00 00 00 00 00 00 00 00 ...  returns 0x00 (0001ms, 0561ms total)
T1DB4 000:745 JLINK_ReadMem (0xE00FF000, 0x0018 Bytes, ...) -- CPU is running -- CPU_ReadMem(24 bytes @ 0xE00FF000) -- Data:  03 F0 F0 FF 03 20 F0 FF 03 30 F0 FF 03 10 F0 FF ...  returns 0x00 (0001ms, 0562ms total)
T1DB4 000:746 JLINK_ReadMemU32(0xE000ED00, 0x0001 Items, ...) -- CPU is running -- CPU_ReadMem(4 bytes @ 0xE000ED00) -- Data:  41 C2 0F 41  returns 0x01 (0001ms, 0563ms total)
T1DB4 000:747 JLINK_ReadMemU32(0xE000EF40, 0x0001 Items, ...) -- CPU is running -- CPU_ReadMem(4 bytes @ 0xE000EF40) -- Data:  21 00 11 10  returns 0x01 (0000ms, 0563ms total)
T1DB4 000:748 JLINK_ReadMemU32(0xE000EF44, 0x0001 Items, ...) -- CPU is running -- CPU_ReadMem(4 bytes @ 0xE000EF44) -- Data:  11 00 00 11  returns 0x01 (0000ms, 0564ms total)
T1DB4 000:748 JLINK_SetResetType(JLINKARM_RESET_TYPE_NORMAL)  returns JLINKARM_RESET_TYPE_NORMAL (0000ms, 0564ms total)
T1DB4 000:748 JLINK_Reset() -- CPU is running -- CPU_WriteMem(4 bytes @ 0xE000EDF0) -- CPU is running -- CPU_WriteMem(4 bytes @ 0xE000EDFC) >0x35 TIF> -- CPU is running -- CPU_WriteMem(4 bytes @ 0xE000ED0C) -- CPU is running -- CPU_ReadMem(4 bytes @ 0xE000EDF0) -- CPU is running -- CPU_ReadMem(4 bytes @ 0xE000EDF0) -- CPU is running -- CPU_WriteMem(4 bytes @ 0xE000EDF0) -- CPU is running -- CPU_WriteMem(4 bytes @ 0xE000EDFC) -- CPU is running -- CPU_ReadMem(4 bytes @ 0xE000EDF0)
 -- CPU_WriteMem(4 bytes @ 0xE0002000) -- CPU_ReadMem(4 bytes @ 0xE000EDFC) -- CPU_ReadMem(4 bytes @ 0xE0001000) (0022ms, 0586ms total)
T1DB4 000:770 JLINK_ReadReg(R15 (PC))  returns 0x08005514 (0000ms, 0586ms total)
T1DB4 000:770 JLINK_ReadReg(XPSR)  returns 0x01000000 (0000ms, 0586ms total)
T1DB4 000:770 JLINK_Halt()  returns 0x00 (0000ms, 0586ms total)
T1DB4 000:770 JLINK_IsHalted()  returns TRUE (0000ms, 0586ms total)
T1DB4 000:770 JLINK_ReadMemU32(0xE000EDF0, 0x0001 Items, ...) -- CPU_ReadMem(4 bytes @ 0xE000EDF0) -- Data:  03 00 03 00  returns 0x01 (0001ms, 0587ms total)
T1DB4 000:771 JLINK_WriteU32(0xE000EDF0, 0xA05F0003) -- CPU_WriteMem(4 bytes @ 0xE000EDF0)  returns 0x00 (0000ms, 0587ms total)
T1DB4 000:771 JLINK_WriteU32(0xE000EDFC, 0x01000000) -- CPU_WriteMem(4 bytes @ 0xE000EDFC)  returns 0x00 (0001ms, 0588ms total)
T1DB4 000:773 JLINK_GetHWStatus(...)  returns 0x00 (0000ms, 0588ms total)
T1DB4 000:773 JLINK_GetNumBPUnits(Type = 0xFFFFFF00)  returns 0x06 (0000ms, 0588ms total)
T1DB4 000:773 JLINK_GetNumBPUnits(Type = 0xF0)  returns 0x2000 (0000ms, 0588ms total)
T1DB4 000:773 JLINK_GetNumWPUnits()  returns 0x04 (0000ms, 0588ms total)
T1DB4 000:773 JLINK_GetSpeed()  returns 0x3E8 (0000ms, 0588ms total)
T1DB4 000:774 JLINK_ReadMemU32(0xE000E004, 0x0001 Items, ...) -- CPU_ReadMem(4 bytes @ 0xE000E004) -- Data:  02 00 00 00  returns 0x01 (0000ms, 0588ms total)
T1DB4 000:774 JLINK_ReadMemU32(0xE000E004, 0x0001 Items, ...) -- CPU_ReadMem(4 bytes @ 0xE000E004) -- Data:  02 00 00 00  returns 0x01 (0001ms, 0589ms total)
T1DB4 000:775 JLINK_WriteMem(0xE0001000, 0x001C Bytes, ...) -- Data:  01 00 00 00 00 00 00 00 00 00 00 00 00 00 00 00 ... -- CPU_WriteMem(28 bytes @ 0xE0001000)  returns 0x1C (0001ms, 0590ms total)
T1DB4 000:776 JLINK_ReadMem (0xE0001000, 0x001C Bytes, ...) -- CPU_ReadMem(28 bytes @ 0xE0001000) -- Data:  01 00 00 40 00 00 00 00 00 00 00 00 00 00 00 00 ...  returns 0x00 (0001ms, 0591ms total)
T1DB4 000:777 JLINK_ReadReg(R15 (PC))  returns 0x08005514 (0000ms, 0591ms total)
T1DB4 000:777 JLINK_ReadReg(XPSR)  returns 0x01000000 (0000ms, 0591ms total)
T1DB4 000:862 JLINK_SetResetType(JLINKARM_RESET_TYPE_NORMAL)  returns JLINKARM_RESET_TYPE_NORMAL (0000ms, 0591ms total)
T1DB4 000:862 JLINK_Reset() -- CPU_WriteMem(4 bytes @ 0xE000EDF0) -- CPU_WriteMem(4 bytes @ 0xE000EDFC) >0x35 TIF> -- CPU_WriteMem(4 bytes @ 0xE000ED0C) -- CPU_ReadMem(4 bytes @ 0xE000EDF0) -- CPU_ReadMem(4 bytes @ 0xE000EDF0) -- CPU_WriteMem(4 bytes @ 0xE000EDF0) -- CPU_WriteMem(4 bytes @ 0xE000EDFC) -- CPU is running -- CPU_ReadMem(4 bytes @ 0xE000EDF0) -- CPU_WriteMem(4 bytes @ 0xE0002000) -- CPU_ReadMem(4 bytes @ 0xE000EDFC) -- CPU_ReadMem(4 bytes @ 0xE0001000) (0020ms, 0611ms total)
T1DB4 000:883 JLINK_ReadReg(R15 (PC))  returns 0x08005514 (0000ms, 0611ms total)
T1DB4 000:883 JLINK_ReadReg(XPSR)  returns 0x01000000 (0000ms, 0611ms total)
T1DB4 000:883 JLINK_ReadMem (0x08005414, 0x003C Bytes, ...) -- CPU_ReadMem(128 bytes @ 0x08005400) -- Updating C cache (128 bytes @ 0x08005400) -- Read from C cache (60 bytes @ 0x08005414) -- Data:  02 20 8D F8 1C 00 8D F8 1D 00 00 20 8D F8 1E 00 ...  returns 0x00 (0003ms, 0614ms total)
T1DB4 000:886 JLINK_ReadMem (0x08005450, 0x003C Bytes, ...) -- CPU_ReadMem(64 bytes @ 0x08005480) -- Updating C cache (64 bytes @ 0x08005480) -- Read from C cache (60 bytes @ 0x08005450) -- Data:  01 F0 B3 F8 01 21 2B 48 01 F0 37 F9 01 22 40 F2 ...  returns 0x00 (0002ms, 0616ms total)
T1DB4 000:888 JLINK_ReadMem (0x0800548C, 0x003C Bytes, ...) -- CPU_ReadMem(64 bytes @ 0x080054C0) -- Updating C cache (64 bytes @ 0x080054C0) -- Read from C cache (60 bytes @ 0x0800548C) -- Data:  25 51 1D 48 01 F0 0C FA 10 B3 1B 48 01 F0 46 F9 ...  returns 0x00 (0001ms, 0617ms total)
T1DB4 000:889 JLINK_ReadMem (0x080054C8, 0x003C Bytes, ...) -- CPU_ReadMem(64 bytes @ 0x08005500) -- Updating C cache (64 bytes @ 0x08005500) -- Read from C cache (60 bytes @ 0x080054C8) -- Data:  08 80 19 E0 0D 2C 06 D1 0E 48 00 88 40 F4 80 40 ...  returns 0x00 (0002ms, 0619ms total)
T1DB4 000:891 JLINK_ReadMem (0x08005506, 0x0002 Bytes, ...) -- Read from C cache (2 bytes @ 0x08005506) -- Data:  01 40  returns 0x00 (0000ms, 0619ms total)
T1DB4 000:891 JLINK_ReadMem (0x08005508, 0x003C Bytes, ...) -- CPU_ReadMem(64 bytes @ 0x08005540) -- Updating C cache (64 bytes @ 0x08005540) -- Read from C cache (60 bytes @ 0x08005508) -- Data:  00 00 02 40 20 00 00 20 42 00 00 20 09 48 80 47 ...  returns 0x00 (0001ms, 0620ms total)
T1DB4 001:833 JLINK_ReadMem (0x00000000, 0x0104 Bytes, ...) -- CPU_ReadMem(4 bytes @ 0x00000004) -- CPU_ReadMem(320 bytes @ 0x08000000) -- Updating C cache (320 bytes @ 0x08000000) -- Read from C cache (260 bytes @ 0x08000000) -- Data:  70 07 00 20 15 55 00 08 D9 03 00 08 DB 03 00 08 ...  returns 0x00 (0006ms, 0626ms total)
T2904 002:468 JLINK_SetBPEx(Addr = 0x08000230, Type = 0xFFFFFFF2)  returns 0x00000001 (0000ms, 0626ms total)
T2904 002:468 JLINK_Go() -- CPU_WriteMem(4 bytes @ 0xE0002000) -- CPU_WriteMem(4 bytes @ 0xE0002008) -- CPU_WriteMem(4 bytes @ 0xE000200C) -- CPU_WriteMem(4 bytes @ 0xE0002010) -- CPU_WriteMem(4 bytes @ 0xE0002014) -- CPU_WriteMem(4 bytes @ 0xE0002018) -- CPU_WriteMem(4 bytes @ 0xE000201C) -- CPU_WriteMem(4 bytes @ 0xE0001004) (0007ms, 0633ms total)
T2904 002:576 JLINK_IsHalted()  returns TRUE (0004ms, 0637ms total)
T2904 002:580 JLINK_Halt()  returns 0x00 (0000ms, 0633ms total)
T2904 002:580 JLINK_IsHalted()  returns TRUE (0000ms, 0633ms total)
T2904 002:580 JLINK_IsHalted()  returns TRUE (0000ms, 0633ms total)
T2904 002:580 JLINK_IsHalted()  returns TRUE (0000ms, 0633ms total)
T2904 002:580 JLINK_ReadReg(R15 (PC))  returns 0x08000230 (0000ms, 0633ms total)
T2904 002:580 JLINK_ReadReg(XPSR)  returns 0x21000000 (0000ms, 0633ms total)
T2904 002:580 JLINK_ClrBPEx(BPHandle = 0x00000001)  returns 0x00 (0001ms, 0634ms total)
T2904 002:581 JLINK_ReadMemU32(0xE000ED30, 0x0001 Items, ...) -- CPU_ReadMem(4 bytes @ 0xE000ED30) -- Data:  03 00 00 00  returns 0x01 (0000ms, 0634ms total)
T2904 002:581 JLINK_ReadMemU32(0xE0001028, 0x0001 Items, ...) -- CPU_ReadMem(4 bytes @ 0xE0001028) -- Data:  00 00 00 00  returns 0x01 (0001ms, 0635ms total)
T2904 002:582 JLINK_ReadMemU32(0xE0001038, 0x0001 Items, ...) -- CPU_ReadMem(4 bytes @ 0xE0001038) -- Data:  00 02 00 00  returns 0x01 (0000ms, 0635ms total)
T2904 002:583 JLINK_ReadMemU32(0xE0001048, 0x0001 Items, ...) -- CPU_ReadMem(4 bytes @ 0xE0001048) -- Data:  00 00 00 00  returns 0x01 (0000ms, 0635ms total)
T2904 002:583 JLINK_ReadMemU32(0xE0001058, 0x0001 Items, ...) -- CPU_ReadMem(4 bytes @ 0xE0001058) -- Data:  00 00 00 00  returns 0x01 (0001ms, 0636ms total)
T2904 002:584 JLINK_ReadReg(R0)  returns 0x20000170 (0000ms, 0636ms total)
T2904 002:584 JLINK_ReadReg(R1)  returns 0x20000370 (0000ms, 0636ms total)
T2904 002:584 JLINK_ReadReg(R2)  returns 0x20000370 (0000ms, 0636ms total)
T2904 002:584 JLINK_ReadReg(R3)  returns 0x20000370 (0000ms, 0636ms total)
T2904 002:584 JLINK_ReadReg(R4)  returns 0x00000000 (0000ms, 0636ms total)
T2904 002:584 JLINK_ReadReg(R5)  returns 0x2000010C (0000ms, 0636ms total)
T2904 002:584 JLINK_ReadReg(R6)  returns 0x00000000 (0000ms, 0636ms total)
T2904 002:584 JLINK_ReadReg(R7)  returns 0x00000000 (0000ms, 0636ms total)
T2904 002:584 JLINK_ReadReg(R8)  returns 0x00000000 (0000ms, 0636ms total)
T2904 002:584 JLINK_ReadReg(R9)  returns 0x00000000 (0000ms, 0636ms total)
T2904 002:584 JLINK_ReadReg(R10)  returns 0x080087B8 (0000ms, 0636ms total)
T2904 002:584 JLINK_ReadReg(R11)  returns 0x00000000 (0000ms, 0636ms total)
T2904 002:584 JLINK_ReadReg(R12)  returns 0x2000014C (0000ms, 0636ms total)
T2904 002:584 JLINK_ReadReg(R13 (SP))  returns 0x20000770 (0000ms, 0636ms total)
T2904 002:584 JLINK_ReadReg(R14)  returns 0x08000221 (0000ms, 0636ms total)
T2904 002:584 JLINK_ReadReg(R15 (PC))  returns 0x08000230 (0000ms, 0636ms total)
T2904 002:584 JLINK_ReadReg(XPSR)  returns 0x21000000 (0000ms, 0636ms total)
T2904 002:584 JLINK_ReadReg(MSP)  returns 0x20000770 (0000ms, 0636ms total)
T2904 002:584 JLINK_ReadReg(PSP)  returns 0x00000000 (0000ms, 0636ms total)
T2904 002:584 JLINK_ReadReg(CFBP)  returns 0x04000000 (0000ms, 0636ms total)
T2904 002:584 JLINK_ReadReg(FPSCR)  returns 0x03000000 (0008ms, 0644ms total)
T2904 002:592 JLINK_ReadReg(FPS0)  returns 0x00000000 (0000ms, 0644ms total)
T2904 002:592 JLINK_ReadReg(FPS1)  returns 0x00000000 (0000ms, 0644ms total)
T2904 002:592 JLINK_ReadReg(FPS2)  returns 0x00000000 (0000ms, 0644ms total)
T2904 002:592 JLINK_ReadReg(FPS3)  returns 0x00000000 (0000ms, 0644ms total)
T2904 002:592 JLINK_ReadReg(FPS4)  returns 0x00000000 (0000ms, 0644ms total)
T2904 002:592 JLINK_ReadReg(FPS5)  returns 0x00000000 (0000ms, 0644ms total)
T2904 002:592 JLINK_ReadReg(FPS6)  returns 0x00000000 (0000ms, 0644ms total)
T2904 002:592 JLINK_ReadReg(FPS7)  returns 0x00000000 (0000ms, 0644ms total)
T2904 002:592 JLINK_ReadReg(FPS8)  returns 0x00000000 (0000ms, 0644ms total)
T2904 002:592 JLINK_ReadReg(FPS9)  returns 0x00000000 (0000ms, 0644ms total)
T2904 002:592 JLINK_ReadReg(FPS10)  returns 0x00000000 (0000ms, 0644ms total)
T2904 002:592 JLINK_ReadReg(FPS11)  returns 0x00000000 (0000ms, 0644ms total)
T2904 002:592 JLINK_ReadReg(FPS12)  returns 0x00000000 (0000ms, 0644ms total)
T2904 002:592 JLINK_ReadReg(FPS13)  returns 0x00000000 (0000ms, 0644ms total)
T2904 002:592 JLINK_ReadReg(FPS14)  returns 0x00000000 (0000ms, 0644ms total)
T2904 002:592 JLINK_ReadReg(FPS15)  returns 0x00000000 (0000ms, 0644ms total)
T2904 002:592 JLINK_ReadReg(FPS16)  returns 0x00000000 (0000ms, 0644ms total)
T2904 002:592 JLINK_ReadReg(FPS17)  returns 0x00000000 (0000ms, 0644ms total)
T2904 002:592 JLINK_ReadReg(FPS18)  returns 0x00000000 (0000ms, 0644ms total)
T2904 002:592 JLINK_ReadReg(FPS19)  returns 0x00000000 (0000ms, 0644ms total)
T2904 002:592 JLINK_ReadReg(FPS20)  returns 0x00000000 (0000ms, 0644ms total)
T2904 002:592 JLINK_ReadReg(FPS31)  returns 0x00000000 (0001ms, 0645ms total)
T2904 002:593 JLINK_ReadReg(FPS7)  returns 0x00000000 (0000ms, 0645ms total)
T2904 002:593 JLINK_ReadReg(FPS8)  returns 0x00000000 (0000ms, 0645ms total)
T2904 002:593 JLINK_ReadReg(FPS9)  returns 0x00000000 (0000ms, 0645ms total)
T2904 002:593 JLINK_ReadReg(FPS10)  returns 0x00000000 (0000ms, 0645ms total)
T2904 002:593 JLINK_ReadReg(FPS11)  returns 0x00000000 (0000ms, 0645ms total)
T2904 002:593 JLINK_ReadReg(FPS12)  returns 0x00000000 (0000ms, 0645ms total)
T2904 002:593 JLINK_ReadReg(FPS13)  returns 0x00000000 (0000ms, 0645ms total)
T2904 002:593 JLINK_ReadReg(FPS14)  returns 0x00000000 (0000ms, 0645ms total)
T2904 002:593 JLINK_ReadReg(FPS15)  returns 0x00000000 (0000ms, 0645ms total)
T2904 002:593 JLINK_ReadReg(FPS16)  returns 0x00000000 (0000ms, 0645ms total)
T1DB4 002:594 JLINK_ReadMem (0x20000764, 0x000C Bytes, ...) -- CPU_ReadMem(64 bytes @ 0x20000740) -- Updating C cache (64 bytes @ 0x20000740) -- Read from C cache (12 bytes @ 0x20000764) -- Data:  70 03 00 20 00 00 00 00 1D 02 00 08  returns 0x00 (0002ms, 0647ms total)
T1DB4 002:597 JLINK_ReadMemU32(0xE0001004, 0x0001 Items, ...) -- CPU_ReadMem(4 bytes @ 0xE0001004) -- Data:  B8 2B 00 00  returns 0x01 (0000ms, 0647ms total)
T1DB4 002:602 JLINK_ReadMem (0x08000188, 0x003C Bytes, ...) -- CPU_ReadMem(128 bytes @ 0x08000180) -- Updating C cache (128 bytes @ 0x08000180) -- Read from C cache (60 bytes @ 0x08000188) -- Data:  00 F0 02 F8 00 F0 41 F8 0A A0 90 E8 00 0C 82 44 ...  returns 0x00 (0003ms, 0650ms total)
T1DB4 002:605 JLINK_ReadMem (0x080001C4, 0x003C Bytes, ...) -- Read from C cache (60 bytes @ 0x080001C4) -- Data:  10 3A 24 BF 78 C8 78 C1 FA D8 52 07 24 BF 30 C8 ...  returns 0x00 (0000ms, 0650ms total)
T1DB4 002:605 JLINK_ReadMem (0x08000200, 0x003C Bytes, ...) -- CPU_ReadMem(64 bytes @ 0x08000200) -- Updating C cache (64 bytes @ 0x08000200) -- Read from C cache (60 bytes @ 0x08000200) -- Data:  E9 83 00 20 70 47 1F B5 06 F0 B4 FE 1F BD 10 B5 ...  returns 0x00 (0001ms, 0651ms total)
T1DB4 002:606 JLINK_ReadMem (0x0800023C, 0x003C Bytes, ...) -- CPU_ReadMem(64 bytes @ 0x08000240) -- Updating C cache (64 bytes @ 0x08000240) -- Read from C cache (60 bytes @ 0x0800023C) -- Data:  A8 20 05 F0 41 F8 4F F4 E1 30 05 F0 CD F8 00 F0 ...  returns 0x00 (0002ms, 0653ms total)
T1DB4 002:647 JLINK_ReadMem (0x08000278, 0x003C Bytes, ...) -- CPU_ReadMem(64 bytes @ 0x08000280) -- Updating C cache (64 bytes @ 0x08000280) -- Read from C cache (60 bytes @ 0x08000278) -- Data:  2C 31 36 3B 4F F6 FF 70 01 F0 6E F8 34 E0 00 20 ...  returns 0x00 (0001ms, 0654ms total)
T2904 010:500 JLINK_Step() -- Read from C cache (2 bytes @ 0x08000230) -- Simulated  returns 0x00 (0001ms, 0655ms total)
T2904 010:501 JLINK_ReadReg(R15 (PC))  returns 0x08000232 (0000ms, 0655ms total)
T2904 010:501 JLINK_ReadReg(XPSR)  returns 0x21000000 (0000ms, 0655ms total)
T2904 010:501 JLINK_ReadReg(R0)  returns 0x20000170 (0000ms, 0655ms total)
T2904 010:501 JLINK_ReadReg(R1)  returns 0x20000370 (0000ms, 0655ms total)
T2904 010:501 JLINK_ReadReg(R2)  returns 0x20000370 (0000ms, 0655ms total)
T2904 010:501 JLINK_ReadReg(R3)  returns 0x20000370 (0000ms, 0655ms total)
T2904 010:501 JLINK_ReadReg(R4)  returns 0x00000000 (0000ms, 0655ms total)
T2904 010:501 JLINK_ReadReg(R5)  returns 0x2000010C (0000ms, 0655ms total)
T2904 010:501 JLINK_ReadReg(R6)  returns 0x00000000 (0000ms, 0655ms total)
T2904 010:501 JLINK_ReadReg(R7)  returns 0x00000000 (0000ms, 0655ms total)
T2904 010:501 JLINK_ReadReg(R8)  returns 0x00000000 (0000ms, 0655ms total)
T2904 010:501 JLINK_ReadReg(R9)  returns 0x00000000 (0000ms, 0655ms total)
T2904 010:501 JLINK_ReadReg(R10)  returns 0x080087B8 (0000ms, 0655ms total)
T2904 010:501 JLINK_ReadReg(R11)  returns 0x00000000 (0000ms, 0655ms total)
T2904 010:501 JLINK_ReadReg(R12)  returns 0x2000014C (0000ms, 0655ms total)
T2904 010:501 JLINK_ReadReg(R13 (SP))  returns 0x20000758 (0000ms, 0655ms total)
T2904 010:501 JLINK_ReadReg(R14)  returns 0x08000221 (0000ms, 0655ms total)
T2904 010:501 JLINK_ReadReg(R15 (PC))  returns 0x08000232 (0000ms, 0655ms total)
T2904 010:501 JLINK_ReadReg(XPSR)  returns 0x21000000 (0000ms, 0655ms total)
T2904 010:501 JLINK_ReadReg(MSP)  returns 0x20000758 (0000ms, 0655ms total)
T2904 010:501 JLINK_ReadReg(PSP)  returns 0x00000000 (0001ms, 0656ms total)
T2904 010:502 JLINK_ReadReg(CFBP)  returns 0x04000000 (0000ms, 0656ms total)
T2904 010:502 JLINK_ReadReg(FPSCR)  returns 0x03000000 (0000ms, 0656ms total)
T2904 010:502 JLINK_ReadReg(FPS0)  returns 0x00000000 (0000ms, 0656ms total)
T2904 010:502 JLINK_ReadReg(FPS1)  returns 0x00000000 (0000ms, 0656ms total)
T2904 010:502 JLINK_ReadReg(FPS2)  returns 0x00000000 (0000ms, 0656ms total)
T2904 010:502 JLINK_ReadReg(FPS3)  returns 0x00000000 (0000ms, 0656ms total)
T2904 010:502 JLINK_ReadReg(FPS4)  returns 0x00000000 (0000ms, 0656ms total)
T2904 010:502 JLINK_ReadReg(FPS5)  returns 0x00000000 (0000ms, 0656ms total)
T2904 010:502 JLINK_ReadReg(FPS6)  returns 0x00000000 (0000ms, 0656ms total)
T2904 010:502 JLINK_ReadReg(FPS7)  returns 0x00000000 (0000ms, 0656ms total)
T2904 010:502 JLINK_ReadReg(FPS8)  returns 0x00000000 (0000ms, 0656ms total)
T2904 010:502 JLINK_ReadReg(FPS9)  returns 0x00000000 (0000ms, 0656ms total)
T2904 010:502 JLINK_ReadReg(FPS10)  returns 0x00000000 (0000ms, 0656ms total)
T2904 010:502 JLINK_ReadReg(FPS11)  returns 0x00000000 (0000ms, 0656ms total)
T2904 010:502 JLINK_ReadReg(FPS12)  returns 0x00000000 (0000ms, 0656ms total)
T2904 010:502 JLINK_ReadReg(FPS13)  returns 0x00000000 (0000ms, 0656ms total)
T2904 010:502 JLINK_ReadReg(FPS14)  returns 0x00000000 (0000ms, 0656ms total)
T2904 010:502 JLINK_ReadReg(FPS15)  returns 0x00000000 (0000ms, 0656ms total)
T2904 010:502 JLINK_ReadReg(FPS16)  returns 0x00000000 (0000ms, 0656ms total)
T2904 010:502 JLINK_ReadReg(FPS17)  returns 0x00000000 (0000ms, 0656ms total)
T2904 010:502 JLINK_ReadReg(FPS18)  returns 0x00000000 (0000ms, 0656ms total)
T2904 010:502 JLINK_ReadReg(FPS19)  returns 0x00000000 (0000ms, 0656ms total)
T2904 010:502 JLINK_ReadReg(FPS20)  returns 0x00000000 (0000ms, 0656ms total)
T2904 010:502 JLINK_ReadReg(FPS31)  returns 0x00000000 (0000ms, 0656ms total)
T2904 010:502 JLINK_ReadReg(FPS7)  returns 0x00000000 (0000ms, 0656ms total)
T2904 010:502 JLINK_ReadReg(FPS8)  returns 0x00000000 (0000ms, 0656ms total)
T2904 010:502 JLINK_ReadReg(FPS9)  returns 0x00000000 (0000ms, 0656ms total)
T2904 010:502 JLINK_ReadReg(FPS10)  returns 0x00000000 (0000ms, 0656ms total)
T2904 010:502 JLINK_ReadReg(FPS11)  returns 0x00000000 (0000ms, 0656ms total)
T2904 010:502 JLINK_ReadReg(FPS12)  returns 0x00000000 (0000ms, 0656ms total)
T2904 010:503 JLINK_ReadReg(FPS13)  returns 0x00000000 (0000ms, 0656ms total)
T2904 010:503 JLINK_ReadReg(FPS14)  returns 0x00000000 (0000ms, 0656ms total)
T2904 010:503 JLINK_ReadReg(FPS15)  returns 0x00000000 (0000ms, 0656ms total)
T2904 010:503 JLINK_ReadReg(FPS16)  returns 0x00000000 (0000ms, 0656ms total)
T1DB4 010:506 JLINK_ReadMem (0x20000764, 0x000C Bytes, ...) -- Read from C cache (12 bytes @ 0x20000764) -- Data:  70 03 00 20 00 00 00 00 1D 02 00 08  returns 0x00 (0000ms, 0656ms total)
T1DB4 010:506 JLINK_ReadMemU32(0xE0001004, 0x0001 Items, ...) -- Data:  B8 2B 00 00  returns 0x01 (0000ms, 0656ms total)
T1DB4 010:511 JLINK_ReadMem (0x08000226, 0x0002 Bytes, ...) -- Read from C cache (2 bytes @ 0x08000226) -- Data:  FF F7  returns 0x00 (0000ms, 0656ms total)
T1DB4 010:511 JLINK_ReadMem (0x08000228, 0x003C Bytes, ...) -- Read from C cache (60 bytes @ 0x08000228) -- Data:  F2 FF 03 BC 05 F0 CC F8 86 B0 00 24 4F F4 A0 60 ...  returns 0x00 (0000ms, 0656ms total)
T2904 011:087 JLINK_Step() -- Read from C cache (2 bytes @ 0x08000232) -- Simulated  returns 0x00 (0001ms, 0657ms total)
T2904 011:088 JLINK_ReadReg(R15 (PC))  returns 0x08000234 (0000ms, 0657ms total)
T2904 011:088 JLINK_ReadReg(XPSR)  returns 0x61000000 (0000ms, 0657ms total)
T2904 011:088 JLINK_ReadReg(R0)  returns 0x20000170 (0000ms, 0657ms total)
T2904 011:088 JLINK_ReadReg(R1)  returns 0x20000370 (0000ms, 0657ms total)
T2904 011:088 JLINK_ReadReg(R2)  returns 0x20000370 (0000ms, 0657ms total)
T2904 011:088 JLINK_ReadReg(R3)  returns 0x20000370 (0000ms, 0657ms total)
T2904 011:088 JLINK_ReadReg(R4)  returns 0x00000000 (0000ms, 0657ms total)
T2904 011:088 JLINK_ReadReg(R5)  returns 0x2000010C (0000ms, 0657ms total)
T2904 011:088 JLINK_ReadReg(R6)  returns 0x00000000 (0000ms, 0657ms total)
T2904 011:088 JLINK_ReadReg(R7)  returns 0x00000000 (0000ms, 0657ms total)
T2904 011:088 JLINK_ReadReg(R8)  returns 0x00000000 (0000ms, 0657ms total)
T2904 011:088 JLINK_ReadReg(R9)  returns 0x00000000 (0000ms, 0657ms total)
T2904 011:088 JLINK_ReadReg(R10)  returns 0x080087B8 (0000ms, 0657ms total)
T2904 011:088 JLINK_ReadReg(R11)  returns 0x00000000 (0000ms, 0657ms total)
T2904 011:088 JLINK_ReadReg(R12)  returns 0x2000014C (0000ms, 0657ms total)
T2904 011:088 JLINK_ReadReg(R13 (SP))  returns 0x20000758 (0000ms, 0657ms total)
T2904 011:088 JLINK_ReadReg(R14)  returns 0x08000221 (0000ms, 0657ms total)
T2904 011:088 JLINK_ReadReg(R15 (PC))  returns 0x08000234 (0000ms, 0657ms total)
T2904 011:088 JLINK_ReadReg(XPSR)  returns 0x61000000 (0000ms, 0657ms total)
T2904 011:088 JLINK_ReadReg(MSP)  returns 0x20000758 (0000ms, 0657ms total)
T2904 011:088 JLINK_ReadReg(PSP)  returns 0x00000000 (0000ms, 0657ms total)
T2904 011:088 JLINK_ReadReg(CFBP)  returns 0x04000000 (0001ms, 0658ms total)
T2904 011:089 JLINK_ReadReg(FPSCR)  returns 0x03000000 (0000ms, 0658ms total)
T2904 011:089 JLINK_ReadReg(FPS0)  returns 0x00000000 (0000ms, 0658ms total)
T2904 011:089 JLINK_ReadReg(FPS1)  returns 0x00000000 (0000ms, 0658ms total)
T2904 011:089 JLINK_ReadReg(FPS2)  returns 0x00000000 (0000ms, 0658ms total)
T2904 011:089 JLINK_ReadReg(FPS3)  returns 0x00000000 (0000ms, 0658ms total)
T2904 011:089 JLINK_ReadReg(FPS4)  returns 0x00000000 (0000ms, 0658ms total)
T2904 011:089 JLINK_ReadReg(FPS5)  returns 0x00000000 (0000ms, 0658ms total)
T2904 011:089 JLINK_ReadReg(FPS6)  returns 0x00000000 (0000ms, 0658ms total)
T2904 011:089 JLINK_ReadReg(FPS7)  returns 0x00000000 (0000ms, 0658ms total)
T2904 011:089 JLINK_ReadReg(FPS8)  returns 0x00000000 (0000ms, 0658ms total)
T2904 011:089 JLINK_ReadReg(FPS9)  returns 0x00000000 (0000ms, 0658ms total)
T2904 011:089 JLINK_ReadReg(FPS10)  returns 0x00000000 (0000ms, 0658ms total)
T2904 011:089 JLINK_ReadReg(FPS11)  returns 0x00000000 (0000ms, 0658ms total)
T2904 011:089 JLINK_ReadReg(FPS12)  returns 0x00000000 (0000ms, 0658ms total)
T2904 011:089 JLINK_ReadReg(FPS13)  returns 0x00000000 (0000ms, 0658ms total)
T2904 011:089 JLINK_ReadReg(FPS14)  returns 0x00000000 (0000ms, 0658ms total)
T2904 011:089 JLINK_ReadReg(FPS15)  returns 0x00000000 (0000ms, 0658ms total)
T2904 011:089 JLINK_ReadReg(FPS16)  returns 0x00000000 (0000ms, 0658ms total)
T2904 011:089 JLINK_ReadReg(FPS17)  returns 0x00000000 (0000ms, 0658ms total)
T2904 011:089 JLINK_ReadReg(FPS18)  returns 0x00000000 (0000ms, 0658ms total)
T2904 011:089 JLINK_ReadReg(FPS19)  returns 0x00000000 (0000ms, 0658ms total)
T2904 011:089 JLINK_ReadReg(FPS20)  returns 0x00000000 (0000ms, 0658ms total)
T2904 011:089 JLINK_ReadReg(FPS31)  returns 0x00000000 (0000ms, 0658ms total)
T2904 011:089 JLINK_ReadReg(FPS7)  returns 0x00000000 (0000ms, 0658ms total)
T2904 011:089 JLINK_ReadReg(FPS8)  returns 0x00000000 (0000ms, 0658ms total)
T2904 011:089 JLINK_ReadReg(FPS9)  returns 0x00000000 (0000ms, 0658ms total)
T2904 011:089 JLINK_ReadReg(FPS10)  returns 0x00000000 (0000ms, 0658ms total)
T2904 011:089 JLINK_ReadReg(FPS11)  returns 0x00000000 (0000ms, 0658ms total)
T2904 011:089 JLINK_ReadReg(FPS12)  returns 0x00000000 (0000ms, 0658ms total)
T2904 011:089 JLINK_ReadReg(FPS13)  returns 0x00000000 (0000ms, 0658ms total)
T2904 011:089 JLINK_ReadReg(FPS14)  returns 0x00000000 (0000ms, 0658ms total)
T2904 011:089 JLINK_ReadReg(FPS15)  returns 0x00000000 (0000ms, 0658ms total)
T2904 011:089 JLINK_ReadReg(FPS16)  returns 0x00000000 (0000ms, 0658ms total)
T1DB4 011:091 JLINK_ReadMem (0x20000764, 0x000C Bytes, ...) -- Read from C cache (12 bytes @ 0x20000764) -- Data:  70 03 00 20 00 00 00 00 1D 02 00 08  returns 0x00 (0000ms, 0658ms total)
T1DB4 011:091 JLINK_ReadMemU32(0xE0001004, 0x0001 Items, ...) -- Data:  B8 2B 00 00  returns 0x01 (0000ms, 0658ms total)
T2904 012:577 JLINK_ReadMem (0x08000234, 0x003C Bytes, ...) -- Read from C cache (60 bytes @ 0x08000234) -- Data:  4F F4 A0 60 05 F0 8C F9 A8 20 05 F0 41 F8 4F F4 ...  returns 0x00 (0000ms, 0658ms total)
T2904 012:578 JLINK_Step() -- Read from C cache (2 bytes @ 0x08000234) -- Read from C cache (2 bytes @ 0x08000236) -- Simulated  returns 0x00 (0000ms, 0658ms total)
T2904 012:578 JLINK_ReadReg(R15 (PC))  returns 0x08000238 (0000ms, 0658ms total)
T2904 012:578 JLINK_ReadReg(XPSR)  returns 0x61000000 (0000ms, 0658ms total)
T2904 012:578 JLINK_ReadReg(R0)  returns 0x00000500 (0000ms, 0658ms total)
T2904 012:578 JLINK_ReadReg(R1)  returns 0x20000370 (0000ms, 0658ms total)
T2904 012:578 JLINK_ReadReg(R2)  returns 0x20000370 (0000ms, 0658ms total)
T2904 012:578 JLINK_ReadReg(R3)  returns 0x20000370 (0000ms, 0658ms total)
T2904 012:578 JLINK_ReadReg(R4)  returns 0x00000000 (0000ms, 0658ms total)
T2904 012:578 JLINK_ReadReg(R5)  returns 0x2000010C (0000ms, 0658ms total)
T2904 012:578 JLINK_ReadReg(R6)  returns 0x00000000 (0000ms, 0658ms total)
T2904 012:578 JLINK_ReadReg(R7)  returns 0x00000000 (0000ms, 0658ms total)
T2904 012:579 JLINK_ReadReg(R8)  returns 0x00000000 (0000ms, 0659ms total)
T2904 012:579 JLINK_ReadReg(R9)  returns 0x00000000 (0000ms, 0659ms total)
T2904 012:579 JLINK_ReadReg(R10)  returns 0x080087B8 (0000ms, 0659ms total)
T2904 012:579 JLINK_ReadReg(R11)  returns 0x00000000 (0000ms, 0659ms total)
T2904 012:579 JLINK_ReadReg(R12)  returns 0x2000014C (0000ms, 0659ms total)
T2904 012:579 JLINK_ReadReg(R13 (SP))  returns 0x20000758 (0000ms, 0659ms total)
T2904 012:579 JLINK_ReadReg(R14)  returns 0x08000221 (0000ms, 0659ms total)
T2904 012:579 JLINK_ReadReg(R15 (PC))  returns 0x08000238 (0000ms, 0659ms total)
T2904 012:579 JLINK_ReadReg(XPSR)  returns 0x61000000 (0000ms, 0659ms total)
T2904 012:579 JLINK_ReadReg(MSP)  returns 0x20000758 (0000ms, 0659ms total)
T2904 012:579 JLINK_ReadReg(PSP)  returns 0x00000000 (0000ms, 0659ms total)
T2904 012:579 JLINK_ReadReg(CFBP)  returns 0x04000000 (0000ms, 0659ms total)
T2904 012:579 JLINK_ReadReg(FPSCR)  returns 0x03000000 (0000ms, 0659ms total)
T2904 012:579 JLINK_ReadReg(FPS0)  returns 0x00000000 (0000ms, 0659ms total)
T2904 012:579 JLINK_ReadReg(FPS1)  returns 0x00000000 (0000ms, 0659ms total)
T2904 012:579 JLINK_ReadReg(FPS2)  returns 0x00000000 (0000ms, 0659ms total)
T2904 012:579 JLINK_ReadReg(FPS3)  returns 0x00000000 (0000ms, 0659ms total)
T2904 012:579 JLINK_ReadReg(FPS4)  returns 0x00000000 (0000ms, 0659ms total)
T2904 012:579 JLINK_ReadReg(FPS5)  returns 0x00000000 (0000ms, 0659ms total)
T2904 012:579 JLINK_ReadReg(FPS6)  returns 0x00000000 (0000ms, 0659ms total)
T2904 012:579 JLINK_ReadReg(FPS7)  returns 0x00000000 (0000ms, 0659ms total)
T2904 012:579 JLINK_ReadReg(FPS8)  returns 0x00000000 (0000ms, 0659ms total)
T2904 012:579 JLINK_ReadReg(FPS9)  returns 0x00000000 (0000ms, 0659ms total)
T2904 012:579 JLINK_ReadReg(FPS10)  returns 0x00000000 (0000ms, 0659ms total)
T2904 012:579 JLINK_ReadReg(FPS11)  returns 0x00000000 (0000ms, 0659ms total)
T2904 012:579 JLINK_ReadReg(FPS12)  returns 0x00000000 (0000ms, 0659ms total)
T2904 012:579 JLINK_ReadReg(FPS13)  returns 0x00000000 (0000ms, 0659ms total)
T2904 012:579 JLINK_ReadReg(FPS14)  returns 0x00000000 (0000ms, 0659ms total)
T2904 012:579 JLINK_ReadReg(FPS15)  returns 0x00000000 (0000ms, 0659ms total)
T2904 012:579 JLINK_ReadReg(FPS16)  returns 0x00000000 (0000ms, 0659ms total)
T2904 012:579 JLINK_ReadReg(FPS17)  returns 0x00000000 (0000ms, 0659ms total)
T2904 012:579 JLINK_ReadReg(FPS18)  returns 0x00000000 (0000ms, 0659ms total)
T2904 012:579 JLINK_ReadReg(FPS19)  returns 0x00000000 (0000ms, 0659ms total)
T2904 012:579 JLINK_ReadReg(FPS20)  returns 0x00000000 (0000ms, 0659ms total)
T2904 012:579 JLINK_ReadReg(FPS31)  returns 0x00000000 (0000ms, 0659ms total)
T2904 012:579 JLINK_ReadReg(FPS7)  returns 0x00000000 (0001ms, 0660ms total)
T2904 012:580 JLINK_ReadReg(FPS8)  returns 0x00000000 (0000ms, 0660ms total)
T2904 012:580 JLINK_ReadReg(FPS9)  returns 0x00000000 (0000ms, 0660ms total)
T2904 012:580 JLINK_ReadReg(FPS10)  returns 0x00000000 (0000ms, 0660ms total)
T2904 012:580 JLINK_ReadReg(FPS11)  returns 0x00000000 (0000ms, 0660ms total)
T2904 012:580 JLINK_ReadReg(FPS12)  returns 0x00000000 (0000ms, 0660ms total)
T2904 012:580 JLINK_ReadReg(FPS13)  returns 0x00000000 (0000ms, 0660ms total)
T2904 012:580 JLINK_ReadReg(FPS14)  returns 0x00000000 (0000ms, 0660ms total)
T2904 012:580 JLINK_ReadReg(FPS15)  returns 0x00000000 (0000ms, 0660ms total)
T2904 012:580 JLINK_ReadReg(FPS16)  returns 0x00000000 (0000ms, 0660ms total)
T1DB4 012:584 JLINK_ReadMem (0x20000764, 0x000C Bytes, ...) -- Read from C cache (12 bytes @ 0x20000764) -- Data:  70 03 00 20 00 00 00 00 1D 02 00 08  returns 0x00 (0000ms, 0660ms total)
T1DB4 012:584 JLINK_ReadMemU32(0xE0001004, 0x0001 Items, ...) -- Data:  B8 2B 00 00  returns 0x01 (0000ms, 0660ms total)
T2904 020:309 JLINK_ReadMem (0x08000238, 0x003C Bytes, ...) -- Read from C cache (60 bytes @ 0x08000238) -- Data:  05 F0 8C F9 A8 20 05 F0 41 F8 4F F4 E1 30 05 F0 ...  returns 0x00 (0001ms, 0661ms total)
T2904 020:310 JLINK_SetBPEx(Addr = 0x0800023C, Type = 0xFFFFFFF2)  returns 0x00000002 (0000ms, 0661ms total)
T2904 020:310 JLINK_Go() -- CPU_WriteMem(4 bytes @ 0xE0002000) -- CPU_WriteMem(4 bytes @ 0xE0002008) -- CPU_WriteMem(4 bytes @ 0xE0001004) (0004ms, 0665ms total)
T2904 020:415 JLINK_IsHalted()  returns TRUE (0005ms, 0670ms total)
T2904 020:420 JLINK_Halt()  returns 0x00 (0000ms, 0665ms total)
T2904 020:420 JLINK_IsHalted()  returns TRUE (0000ms, 0665ms total)
T2904 020:420 JLINK_IsHalted()  returns TRUE (0000ms, 0665ms total)
T2904 020:420 JLINK_IsHalted()  returns TRUE (0000ms, 0665ms total)
T2904 020:420 JLINK_ReadReg(R15 (PC))  returns 0x0800023C (0000ms, 0665ms total)
T2904 020:420 JLINK_ReadReg(XPSR)  returns 0x21000000 (0000ms, 0665ms total)
T2904 020:420 JLINK_ClrBPEx(BPHandle = 0x00000002)  returns 0x00 (0000ms, 0665ms total)
T2904 020:420 JLINK_ReadMemU32(0xE000ED30, 0x0001 Items, ...) -- CPU_ReadMem(4 bytes @ 0xE000ED30) -- Data:  03 00 00 00  returns 0x01 (0001ms, 0666ms total)
T2904 020:421 JLINK_ReadMemU32(0xE0001028, 0x0001 Items, ...) -- CPU_ReadMem(4 bytes @ 0xE0001028) -- Data:  00 00 00 00  returns 0x01 (0000ms, 0666ms total)
T2904 020:421 JLINK_ReadMemU32(0xE0001038, 0x0001 Items, ...) -- CPU_ReadMem(4 bytes @ 0xE0001038) -- Data:  00 02 00 00  returns 0x01 (0001ms, 0667ms total)
T2904 020:422 JLINK_ReadMemU32(0xE0001048, 0x0001 Items, ...) -- CPU_ReadMem(4 bytes @ 0xE0001048) -- Data:  00 00 00 00  returns 0x01 (0001ms, 0668ms total)
T2904 020:423 JLINK_ReadMemU32(0xE0001058, 0x0001 Items, ...) -- CPU_ReadMem(4 bytes @ 0xE0001058) -- Data:  00 00 00 00  returns 0x01 (0000ms, 0668ms total)
T2904 020:423 JLINK_ReadReg(R0)  returns 0x00000500 (0000ms, 0668ms total)
T2904 020:423 JLINK_ReadReg(R1)  returns 0x05FA0500 (0001ms, 0669ms total)
T2904 020:424 JLINK_ReadReg(R2)  returns 0xE000ED0C (0000ms, 0669ms total)
T2904 020:424 JLINK_ReadReg(R3)  returns 0x20000370 (0000ms, 0669ms total)
T2904 020:424 JLINK_ReadReg(R4)  returns 0x00000000 (0000ms, 0669ms total)
T2904 020:424 JLINK_ReadReg(R5)  returns 0x2000010C (0000ms, 0669ms total)
T2904 020:424 JLINK_ReadReg(R6)  returns 0x00000000 (0000ms, 0669ms total)
T2904 020:424 JLINK_ReadReg(R7)  returns 0x00000000 (0000ms, 0669ms total)
T2904 020:424 JLINK_ReadReg(R8)  returns 0x00000000 (0000ms, 0669ms total)
T2904 020:424 JLINK_ReadReg(R9)  returns 0x00000000 (0000ms, 0669ms total)
T2904 020:424 JLINK_ReadReg(R10)  returns 0x080087B8 (0000ms, 0669ms total)
T2904 020:424 JLINK_ReadReg(R11)  returns 0x00000000 (0000ms, 0669ms total)
T2904 020:424 JLINK_ReadReg(R12)  returns 0x2000014C (0000ms, 0669ms total)
T2904 020:424 JLINK_ReadReg(R13 (SP))  returns 0x20000758 (0000ms, 0669ms total)
T2904 020:424 JLINK_ReadReg(R14)  returns 0x0800023D (0000ms, 0669ms total)
T2904 020:424 JLINK_ReadReg(R15 (PC))  returns 0x0800023C (0000ms, 0669ms total)
T2904 020:424 JLINK_ReadReg(XPSR)  returns 0x21000000 (0000ms, 0669ms total)
T2904 020:424 JLINK_ReadReg(MSP)  returns 0x20000758 (0000ms, 0669ms total)
T2904 020:424 JLINK_ReadReg(PSP)  returns 0x00000000 (0000ms, 0669ms total)
T2904 020:424 JLINK_ReadReg(CFBP)  returns 0x04000000 (0000ms, 0669ms total)
T2904 020:424 JLINK_ReadReg(FPSCR)  returns 0x03000000 (0007ms, 0676ms total)
T2904 020:431 JLINK_ReadReg(FPS0)  returns 0x00000000 (0000ms, 0676ms total)
T2904 020:431 JLINK_ReadReg(FPS1)  returns 0x00000000 (0000ms, 0676ms total)
T2904 020:431 JLINK_ReadReg(FPS2)  returns 0x00000000 (0000ms, 0676ms total)
T2904 020:431 JLINK_ReadReg(FPS3)  returns 0x00000000 (0000ms, 0676ms total)
T2904 020:431 JLINK_ReadReg(FPS4)  returns 0x00000000 (0000ms, 0676ms total)
T2904 020:431 JLINK_ReadReg(FPS5)  returns 0x00000000 (0000ms, 0676ms total)
T2904 020:431 JLINK_ReadReg(FPS6)  returns 0x00000000 (0000ms, 0676ms total)
T2904 020:431 JLINK_ReadReg(FPS7)  returns 0x00000000 (0000ms, 0676ms total)
T2904 020:431 JLINK_ReadReg(FPS8)  returns 0x00000000 (0001ms, 0677ms total)
T2904 020:432 JLINK_ReadReg(FPS9)  returns 0x00000000 (0000ms, 0677ms total)
T2904 020:432 JLINK_ReadReg(FPS10)  returns 0x00000000 (0000ms, 0677ms total)
T2904 020:432 JLINK_ReadReg(FPS11)  returns 0x00000000 (0000ms, 0677ms total)
T2904 020:432 JLINK_ReadReg(FPS12)  returns 0x00000000 (0000ms, 0677ms total)
T2904 020:432 JLINK_ReadReg(FPS13)  returns 0x00000000 (0000ms, 0677ms total)
T2904 020:432 JLINK_ReadReg(FPS14)  returns 0x00000000 (0000ms, 0677ms total)
T2904 020:432 JLINK_ReadReg(FPS15)  returns 0x00000000 (0000ms, 0677ms total)
T2904 020:432 JLINK_ReadReg(FPS16)  returns 0x00000000 (0000ms, 0677ms total)
T2904 020:432 JLINK_ReadReg(FPS17)  returns 0x00000000 (0000ms, 0677ms total)
T2904 020:432 JLINK_ReadReg(FPS18)  returns 0x00000000 (0000ms, 0677ms total)
T2904 020:432 JLINK_ReadReg(FPS19)  returns 0x00000000 (0000ms, 0677ms total)
T2904 020:432 JLINK_ReadReg(FPS20)  returns 0x00000000 (0000ms, 0677ms total)
T2904 020:432 JLINK_ReadReg(FPS31)  returns 0x00000000 (0000ms, 0677ms total)
T2904 020:432 JLINK_ReadReg(FPS7)  returns 0x00000000 (0000ms, 0677ms total)
T2904 020:432 JLINK_ReadReg(FPS8)  returns 0x00000000 (0000ms, 0677ms total)
T2904 020:432 JLINK_ReadReg(FPS9)  returns 0x00000000 (0000ms, 0677ms total)
T2904 020:432 JLINK_ReadReg(FPS10)  returns 0x00000000 (0000ms, 0677ms total)
T2904 020:432 JLINK_ReadReg(FPS11)  returns 0x00000000 (0000ms, 0677ms total)
T2904 020:432 JLINK_ReadReg(FPS12)  returns 0x00000000 (0000ms, 0677ms total)
T2904 020:432 JLINK_ReadReg(FPS13)  returns 0x00000000 (0000ms, 0677ms total)
T2904 020:432 JLINK_ReadReg(FPS14)  returns 0x00000000 (0000ms, 0677ms total)
T2904 020:432 JLINK_ReadReg(FPS15)  returns 0x00000000 (0000ms, 0677ms total)
T2904 020:432 JLINK_ReadReg(FPS16)  returns 0x00000000 (0000ms, 0677ms total)
T1DB4 020:432 JLINK_ReadMem (0x20000764, 0x000C Bytes, ...) -- CPU_ReadMem(64 bytes @ 0x20000740) -- Updating C cache (64 bytes @ 0x20000740) -- Read from C cache (12 bytes @ 0x20000764) -- Data:  70 03 00 20 00 00 00 00 1D 02 00 08  returns 0x00 (0002ms, 0679ms total)
T1DB4 020:434 JLINK_ReadMemU32(0xE0001004, 0x0001 Items, ...) -- CPU_ReadMem(4 bytes @ 0xE0001004) -- Data:  D2 2B 00 00  returns 0x01 (0001ms, 0680ms total)
T2904 021:772 JLINK_ReadMem (0x0800023C, 0x003C Bytes, ...) -- CPU_ReadMem(128 bytes @ 0x08000200) -- Updating C cache (128 bytes @ 0x08000200) -- Read from C cache (60 bytes @ 0x0800023C) -- Data:  A8 20 05 F0 41 F8 4F F4 E1 30 05 F0 CD F8 00 F0 ...  returns 0x00 (0003ms, 0683ms total)
T2904 021:775 JLINK_Step() -- Read from C cache (2 bytes @ 0x0800023C) -- Simulated  returns 0x00 (0001ms, 0684ms total)
T2904 021:776 JLINK_ReadReg(R15 (PC))  returns 0x0800023E (0000ms, 0684ms total)
T2904 021:776 JLINK_ReadReg(XPSR)  returns 0x21000000 (0000ms, 0684ms total)
T2904 021:776 JLINK_ReadReg(R0)  returns 0x000000A8 (0000ms, 0684ms total)
T2904 021:776 JLINK_ReadReg(R1)  returns 0x05FA0500 (0000ms, 0684ms total)
T2904 021:776 JLINK_ReadReg(R2)  returns 0xE000ED0C (0000ms, 0684ms total)
T2904 021:776 JLINK_ReadReg(R3)  returns 0x20000370 (0000ms, 0684ms total)
T2904 021:776 JLINK_ReadReg(R4)  returns 0x00000000 (0000ms, 0684ms total)
T2904 021:776 JLINK_ReadReg(R5)  returns 0x2000010C (0000ms, 0684ms total)
T2904 021:776 JLINK_ReadReg(R6)  returns 0x00000000 (0000ms, 0684ms total)
T2904 021:776 JLINK_ReadReg(R7)  returns 0x00000000 (0000ms, 0684ms total)
T2904 021:776 JLINK_ReadReg(R8)  returns 0x00000000 (0000ms, 0684ms total)
T2904 021:776 JLINK_ReadReg(R9)  returns 0x00000000 (0000ms, 0684ms total)
T2904 021:776 JLINK_ReadReg(R10)  returns 0x080087B8 (0000ms, 0684ms total)
T2904 021:776 JLINK_ReadReg(R11)  returns 0x00000000 (0000ms, 0684ms total)
T2904 021:776 JLINK_ReadReg(R12)  returns 0x2000014C (0000ms, 0684ms total)
T2904 021:776 JLINK_ReadReg(R13 (SP))  returns 0x20000758 (0000ms, 0684ms total)
T2904 021:776 JLINK_ReadReg(R14)  returns 0x0800023D (0000ms, 0684ms total)
T2904 021:776 JLINK_ReadReg(R15 (PC))  returns 0x0800023E (0001ms, 0685ms total)
T2904 021:777 JLINK_ReadReg(XPSR)  returns 0x21000000 (0000ms, 0685ms total)
T2904 021:777 JLINK_ReadReg(MSP)  returns 0x20000758 (0000ms, 0685ms total)
T2904 021:777 JLINK_ReadReg(PSP)  returns 0x00000000 (0000ms, 0685ms total)
T2904 021:777 JLINK_ReadReg(CFBP)  returns 0x04000000 (0000ms, 0685ms total)
T2904 021:777 JLINK_ReadReg(FPSCR)  returns 0x03000000 (0000ms, 0685ms total)
T2904 021:777 JLINK_ReadReg(FPS0)  returns 0x00000000 (0000ms, 0685ms total)
T2904 021:777 JLINK_ReadReg(FPS1)  returns 0x00000000 (0000ms, 0685ms total)
T2904 021:777 JLINK_ReadReg(FPS2)  returns 0x00000000 (0000ms, 0685ms total)
T2904 021:777 JLINK_ReadReg(FPS3)  returns 0x00000000 (0000ms, 0685ms total)
T2904 021:777 JLINK_ReadReg(FPS4)  returns 0x00000000 (0000ms, 0685ms total)
T2904 021:777 JLINK_ReadReg(FPS5)  returns 0x00000000 (0000ms, 0685ms total)
T2904 021:777 JLINK_ReadReg(FPS6)  returns 0x00000000 (0000ms, 0685ms total)
T2904 021:777 JLINK_ReadReg(FPS7)  returns 0x00000000 (0000ms, 0685ms total)
T2904 021:777 JLINK_ReadReg(FPS8)  returns 0x00000000 (0000ms, 0685ms total)
T2904 021:777 JLINK_ReadReg(FPS9)  returns 0x00000000 (0000ms, 0685ms total)
T2904 021:777 JLINK_ReadReg(FPS10)  returns 0x00000000 (0000ms, 0685ms total)
T2904 021:777 JLINK_ReadReg(FPS11)  returns 0x00000000 (0000ms, 0685ms total)
T2904 021:777 JLINK_ReadReg(FPS12)  returns 0x00000000 (0000ms, 0685ms total)
T2904 021:777 JLINK_ReadReg(FPS13)  returns 0x00000000 (0000ms, 0685ms total)
T2904 021:777 JLINK_ReadReg(FPS14)  returns 0x00000000 (0000ms, 0685ms total)
T2904 021:777 JLINK_ReadReg(FPS15)  returns 0x00000000 (0000ms, 0685ms total)
T2904 021:777 JLINK_ReadReg(FPS16)  returns 0x00000000 (0000ms, 0685ms total)
T2904 021:777 JLINK_ReadReg(FPS17)  returns 0x00000000 (0000ms, 0685ms total)
T2904 021:777 JLINK_ReadReg(FPS18)  returns 0x00000000 (0000ms, 0685ms total)
T2904 021:777 JLINK_ReadReg(FPS19)  returns 0x00000000 (0000ms, 0685ms total)
T2904 021:777 JLINK_ReadReg(FPS20)  returns 0x00000000 (0000ms, 0685ms total)
T2904 021:777 JLINK_ReadReg(FPS31)  returns 0x00000000 (0000ms, 0685ms total)
T2904 021:777 JLINK_ReadReg(FPS7)  returns 0x00000000 (0000ms, 0685ms total)
T2904 021:777 JLINK_ReadReg(FPS8)  returns 0x00000000 (0000ms, 0685ms total)
T2904 021:777 JLINK_ReadReg(FPS9)  returns 0x00000000 (0000ms, 0685ms total)
T2904 021:777 JLINK_ReadReg(FPS10)  returns 0x00000000 (0000ms, 0685ms total)
T2904 021:777 JLINK_ReadReg(FPS11)  returns 0x00000000 (0000ms, 0685ms total)
T2904 021:777 JLINK_ReadReg(FPS12)  returns 0x00000000 (0000ms, 0685ms total)
T2904 021:777 JLINK_ReadReg(FPS13)  returns 0x00000000 (0000ms, 0685ms total)
T2904 021:777 JLINK_ReadReg(FPS14)  returns 0x00000000 (0000ms, 0685ms total)
T2904 021:778 JLINK_ReadReg(FPS15)  returns 0x00000000 (0000ms, 0686ms total)
T2904 021:778 JLINK_ReadReg(FPS16)  returns 0x00000000 (0000ms, 0686ms total)
T1DB4 021:780 JLINK_ReadMem (0x20000764, 0x000C Bytes, ...) -- Read from C cache (12 bytes @ 0x20000764) -- Data:  70 03 00 20 00 00 00 00 1D 02 00 08  returns 0x00 (0000ms, 0686ms total)
T1DB4 021:780 JLINK_ReadMemU32(0xE0001004, 0x0001 Items, ...) -- Data:  D2 2B 00 00  returns 0x01 (0000ms, 0686ms total)
T2904 023:284 JLINK_ReadMem (0x0800023E, 0x0002 Bytes, ...) -- Read from C cache (2 bytes @ 0x0800023E) -- Data:  05 F0  returns 0x00 (0000ms, 0686ms total)
T2904 023:285 JLINK_ReadMem (0x08000240, 0x003C Bytes, ...) -- Read from C cache (60 bytes @ 0x08000240) -- Data:  41 F8 4F F4 E1 30 05 F0 CD F8 00 F0 DB F9 01 F0 ...  returns 0x00 (0000ms, 0687ms total)
T2904 023:285 JLINK_SetBPEx(Addr = 0x08000242, Type = 0xFFFFFFF2)  returns 0x00000003 (0000ms, 0687ms total)
T2904 023:285 JLINK_Go() -- CPU_WriteMem(4 bytes @ 0xE0002000) -- CPU_WriteMem(4 bytes @ 0xE0002008) -- CPU_WriteMem(4 bytes @ 0xE0001004) (0004ms, 0691ms total)
T2904 023:390 JLINK_IsHalted()  returns TRUE (0004ms, 0695ms total)
T2904 023:395 JLINK_Halt()  returns 0x00 (0000ms, 0691ms total)
T2904 023:395 JLINK_IsHalted()  returns TRUE (0000ms, 0691ms total)
T2904 023:395 JLINK_IsHalted()  returns TRUE (0000ms, 0691ms total)
T2904 023:395 JLINK_IsHalted()  returns TRUE (0000ms, 0691ms total)
T2904 023:395 JLINK_ReadReg(R15 (PC))  returns 0x08000242 (0000ms, 0691ms total)
T2904 023:395 JLINK_ReadReg(XPSR)  returns 0x41000000 (0000ms, 0691ms total)
T2904 023:395 JLINK_ClrBPEx(BPHandle = 0x00000003)  returns 0x00 (0000ms, 0691ms total)
T2904 023:395 JLINK_ReadMemU32(0xE000ED30, 0x0001 Items, ...) -- CPU_ReadMem(4 bytes @ 0xE000ED30) -- Data:  03 00 00 00  returns 0x01 (0000ms, 0691ms total)
T2904 023:395 JLINK_ReadMemU32(0xE0001028, 0x0001 Items, ...) -- CPU_ReadMem(4 bytes @ 0xE0001028) -- Data:  00 00 00 00  returns 0x01 (0001ms, 0692ms total)
T2904 023:396 JLINK_ReadMemU32(0xE0001038, 0x0001 Items, ...) -- CPU_ReadMem(4 bytes @ 0xE0001038) -- Data:  00 02 00 00  returns 0x01 (0001ms, 0693ms total)
T2904 023:397 JLINK_ReadMemU32(0xE0001048, 0x0001 Items, ...) -- CPU_ReadMem(4 bytes @ 0xE0001048) -- Data:  00 00 00 00  returns 0x01 (0001ms, 0694ms total)
T2904 023:398 JLINK_ReadMemU32(0xE0001058, 0x0001 Items, ...) -- CPU_ReadMem(4 bytes @ 0xE0001058) -- Data:  00 00 00 00  returns 0x01 (0000ms, 0694ms total)
T2904 023:399 JLINK_ReadReg(R0)  returns 0x00005208 (0000ms, 0694ms total)
T2904 023:399 JLINK_ReadReg(R1)  returns 0x2000001A (0000ms, 0694ms total)
T2904 023:399 JLINK_ReadReg(R2)  returns 0x20000018 (0000ms, 0694ms total)
T2904 023:399 JLINK_ReadReg(R3)  returns 0x20000370 (0000ms, 0694ms total)
T2904 023:399 JLINK_ReadReg(R4)  returns 0x00000000 (0000ms, 0694ms total)
T2904 023:399 JLINK_ReadReg(R5)  returns 0x2000010C (0000ms, 0694ms total)
T2904 023:399 JLINK_ReadReg(R6)  returns 0x00000000 (0000ms, 0694ms total)
T2904 023:399 JLINK_ReadReg(R7)  returns 0x00000000 (0000ms, 0694ms total)
T2904 023:399 JLINK_ReadReg(R8)  returns 0x00000000 (0000ms, 0694ms total)
T2904 023:399 JLINK_ReadReg(R9)  returns 0x00000000 (0000ms, 0694ms total)
T2904 023:399 JLINK_ReadReg(R10)  returns 0x080087B8 (0000ms, 0694ms total)
T2904 023:399 JLINK_ReadReg(R11)  returns 0x00000000 (0000ms, 0694ms total)
T2904 023:399 JLINK_ReadReg(R12)  returns 0x2000014C (0000ms, 0694ms total)
T2904 023:399 JLINK_ReadReg(R13 (SP))  returns 0x20000758 (0000ms, 0694ms total)
T2904 023:399 JLINK_ReadReg(R14)  returns 0x080052D1 (0000ms, 0694ms total)
T2904 023:399 JLINK_ReadReg(R15 (PC))  returns 0x08000242 (0000ms, 0694ms total)
T2904 023:399 JLINK_ReadReg(XPSR)  returns 0x41000000 (0000ms, 0694ms total)
T2904 023:399 JLINK_ReadReg(MSP)  returns 0x20000758 (0000ms, 0694ms total)
T2904 023:399 JLINK_ReadReg(PSP)  returns 0x00000000 (0000ms, 0694ms total)
T2904 023:399 JLINK_ReadReg(CFBP)  returns 0x04000000 (0000ms, 0694ms total)
T2904 023:399 JLINK_ReadReg(FPSCR)  returns 0x03000000 (0007ms, 0701ms total)
T2904 023:406 JLINK_ReadReg(FPS0)  returns 0x00000000 (0000ms, 0701ms total)
T2904 023:406 JLINK_ReadReg(FPS1)  returns 0x00000000 (0000ms, 0701ms total)
T2904 023:406 JLINK_ReadReg(FPS2)  returns 0x00000000 (0000ms, 0701ms total)
T2904 023:406 JLINK_ReadReg(FPS3)  returns 0x00000000 (0000ms, 0701ms total)
T2904 023:406 JLINK_ReadReg(FPS4)  returns 0x00000000 (0000ms, 0701ms total)
T2904 023:406 JLINK_ReadReg(FPS5)  returns 0x00000000 (0000ms, 0701ms total)
T2904 023:406 JLINK_ReadReg(FPS6)  returns 0x00000000 (0000ms, 0701ms total)
T2904 023:406 JLINK_ReadReg(FPS7)  returns 0x00000000 (0000ms, 0701ms total)
T2904 023:406 JLINK_ReadReg(FPS8)  returns 0x00000000 (0001ms, 0702ms total)
T2904 023:407 JLINK_ReadReg(FPS9)  returns 0x00000000 (0000ms, 0702ms total)
T2904 023:407 JLINK_ReadReg(FPS10)  returns 0x00000000 (0000ms, 0702ms total)
T2904 023:407 JLINK_ReadReg(FPS11)  returns 0x00000000 (0000ms, 0702ms total)
T2904 023:407 JLINK_ReadReg(FPS12)  returns 0x00000000 (0000ms, 0702ms total)
T2904 023:407 JLINK_ReadReg(FPS13)  returns 0x00000000 (0000ms, 0702ms total)
T2904 023:407 JLINK_ReadReg(FPS14)  returns 0x00000000 (0000ms, 0702ms total)
T2904 023:407 JLINK_ReadReg(FPS15)  returns 0x00000000 (0000ms, 0702ms total)
T2904 023:407 JLINK_ReadReg(FPS16)  returns 0x00000000 (0000ms, 0702ms total)
T2904 023:407 JLINK_ReadReg(FPS17)  returns 0x00000000 (0000ms, 0702ms total)
T2904 023:407 JLINK_ReadReg(FPS18)  returns 0x00000000 (0000ms, 0702ms total)
T2904 023:407 JLINK_ReadReg(FPS19)  returns 0x00000000 (0000ms, 0702ms total)
T2904 023:407 JLINK_ReadReg(FPS20)  returns 0x00000000 (0000ms, 0702ms total)
T2904 023:407 JLINK_ReadReg(FPS31)  returns 0x00000000 (0000ms, 0702ms total)
T2904 023:407 JLINK_ReadReg(FPS7)  returns 0x00000000 (0000ms, 0702ms total)
T2904 023:407 JLINK_ReadReg(FPS8)  returns 0x00000000 (0000ms, 0702ms total)
T2904 023:407 JLINK_ReadReg(FPS9)  returns 0x00000000 (0000ms, 0702ms total)
T2904 023:407 JLINK_ReadReg(FPS10)  returns 0x00000000 (0000ms, 0702ms total)
T2904 023:407 JLINK_ReadReg(FPS11)  returns 0x00000000 (0000ms, 0702ms total)
T2904 023:407 JLINK_ReadReg(FPS12)  returns 0x00000000 (0000ms, 0702ms total)
T2904 023:407 JLINK_ReadReg(FPS13)  returns 0x00000000 (0000ms, 0702ms total)
T2904 023:407 JLINK_ReadReg(FPS14)  returns 0x00000000 (0000ms, 0702ms total)
T2904 023:407 JLINK_ReadReg(FPS15)  returns 0x00000000 (0000ms, 0702ms total)
T2904 023:407 JLINK_ReadReg(FPS16)  returns 0x00000000 (0000ms, 0702ms total)
T1DB4 023:408 JLINK_ReadMem (0x20000764, 0x000C Bytes, ...) -- CPU_ReadMem(64 bytes @ 0x20000740) -- Updating C cache (64 bytes @ 0x20000740) -- Read from C cache (12 bytes @ 0x20000764) -- Data:  70 03 00 20 00 00 00 00 1D 02 00 08  returns 0x00 (0002ms, 0704ms total)
T1DB4 023:410 JLINK_ReadMemU32(0xE0001004, 0x0001 Items, ...) -- CPU_ReadMem(4 bytes @ 0xE0001004) -- Data:  1B 2C 00 00  returns 0x01 (0000ms, 0704ms total)
